   * /home/inderjitsingh/esim-workspace/one_bit_sram_isd/one_bit_sram_isd.cir
   Transient Analysis  Sat Oct  8 01:23:39  2022
--------------------------------------------------------------------------------
Index   time                            ?               bl              
--------------------------------------------------------------------------------
0	0.000000e+00	0.000000e+00	1.621704e+00	0.000000e+00	
1	1.000000e-11	0.000000e+00	1.621704e+00	0.000000e+00	
2	2.000000e-11	0.000000e+00	1.621704e+00	0.000000e+00	
3	4.000000e-11	0.000000e+00	1.621704e+00	0.000000e+00	
4	8.000000e-11	0.000000e+00	1.621704e+00	0.000000e+00	
5	1.600000e-10	0.000000e+00	1.621704e+00	0.000000e+00	
6	3.200000e-10	0.000000e+00	1.621704e+00	0.000000e+00	
7	6.400000e-10	0.000000e+00	1.621704e+00	0.000000e+00	
8	1.000000e-09	0.000000e+00	1.621704e+00	0.000000e+00	
9	1.064000e-09	0.000000e+00	1.621704e+00	0.000000e+00	
10	1.192000e-09	0.000000e+00	1.621704e+00	0.000000e+00	
11	1.448000e-09	0.000000e+00	1.621704e+00	0.000000e+00	
12	1.960000e-09	0.000000e+00	1.621704e+00	0.000000e+00	
13	2.984000e-09	0.000000e+00	1.621704e+00	0.000000e+00	
14	5.032000e-09	0.000000e+00	1.621704e+00	0.000000e+00	
15	9.128000e-09	0.000000e+00	1.621704e+00	0.000000e+00	
16	1.732000e-08	0.000000e+00	1.621704e+00	0.000000e+00	
17	3.370400e-08	0.000000e+00	1.621704e+00	0.000000e+00	
18	6.647200e-08	0.000000e+00	1.621704e+00	0.000000e+00	
19	1.320080e-07	0.000000e+00	1.621704e+00	0.000000e+00	
20	2.630800e-07	0.000000e+00	1.621704e+00	0.000000e+00	
21	5.252240e-07	0.000000e+00	1.621704e+00	0.000000e+00	
22	9.252240e-07	0.000000e+00	1.621704e+00	0.000000e+00	
23	1.001000e-06	0.000000e+00	1.621704e+00	0.000000e+00	
24	1.001100e-06	0.000000e+00	1.621704e+00	0.000000e+00	
25	1.001300e-06	0.000000e+00	1.621704e+00	0.000000e+00	
26	1.001700e-06	0.000000e+00	1.621704e+00	0.000000e+00	
27	1.002000e-06	0.000000e+00	1.621704e+00	0.000000e+00	
28	1.002080e-06	0.000000e+00	1.621704e+00	0.000000e+00	
29	1.002240e-06	0.000000e+00	1.621704e+00	0.000000e+00	
30	1.002560e-06	0.000000e+00	1.621704e+00	0.000000e+00	
31	1.003200e-06	0.000000e+00	1.621704e+00	0.000000e+00	
32	1.004480e-06	0.000000e+00	1.621704e+00	0.000000e+00	
33	1.007040e-06	0.000000e+00	1.621704e+00	0.000000e+00	
34	1.012160e-06	0.000000e+00	1.621704e+00	0.000000e+00	
35	1.022400e-06	0.000000e+00	1.621704e+00	0.000000e+00	
36	1.042880e-06	0.000000e+00	1.621704e+00	0.000000e+00	
37	1.083840e-06	0.000000e+00	1.621704e+00	0.000000e+00	
38	1.165760e-06	0.000000e+00	1.621704e+00	0.000000e+00	
39	1.329600e-06	0.000000e+00	1.621704e+00	0.000000e+00	
40	1.657280e-06	0.000000e+00	1.621704e+00	0.000000e+00	
41	2.000000e-06	0.000000e+00	1.621704e+00	0.000000e+00	
42	2.000100e-06	0.000000e+00	1.621704e+00	0.000000e+00	
43	2.000300e-06	0.000000e+00	1.621704e+00	0.000000e+00	
44	2.000700e-06	0.000000e+00	1.621704e+00	0.000000e+00	
45	2.001000e-06	0.000000e+00	1.621704e+00	0.000000e+00	
46	2.001080e-06	0.000000e+00	1.621704e+00	0.000000e+00	
47	2.001240e-06	0.000000e+00	1.621704e+00	0.000000e+00	
48	2.001560e-06	0.000000e+00	1.621704e+00	0.000000e+00	
49	2.002200e-06	0.000000e+00	1.621704e+00	0.000000e+00	
50	2.003480e-06	0.000000e+00	1.621704e+00	0.000000e+00	
51	2.006040e-06	0.000000e+00	1.621704e+00	0.000000e+00	
52	2.011160e-06	0.000000e+00	1.621704e+00	0.000000e+00	
53	2.021400e-06	0.000000e+00	1.621704e+00	0.000000e+00	
54	2.041880e-06	0.000000e+00	1.621704e+00	0.000000e+00	

Index   time                            ?               bl              
--------------------------------------------------------------------------------
55	2.082840e-06	0.000000e+00	1.621704e+00	0.000000e+00	
56	2.164760e-06	0.000000e+00	1.621704e+00	0.000000e+00	
57	2.328600e-06	0.000000e+00	1.621704e+00	0.000000e+00	
58	2.656280e-06	0.000000e+00	1.621704e+00	0.000000e+00	
59	3.001000e-06	0.000000e+00	1.621704e+00	0.000000e+00	
60	3.001100e-06	0.000000e+00	1.621704e+00	0.000000e+00	
61	3.001300e-06	0.000000e+00	1.621704e+00	0.000000e+00	
62	3.001700e-06	0.000000e+00	1.621704e+00	0.000000e+00	
63	3.002000e-06	0.000000e+00	1.621704e+00	0.000000e+00	
64	3.002080e-06	0.000000e+00	1.621704e+00	0.000000e+00	
65	3.002240e-06	0.000000e+00	1.621704e+00	0.000000e+00	
66	3.002560e-06	0.000000e+00	1.621704e+00	0.000000e+00	
67	3.003200e-06	0.000000e+00	1.621704e+00	0.000000e+00	
68	3.004480e-06	0.000000e+00	1.621704e+00	0.000000e+00	
69	3.007040e-06	0.000000e+00	1.621704e+00	0.000000e+00	
70	3.012160e-06	0.000000e+00	1.621704e+00	0.000000e+00	
71	3.022400e-06	0.000000e+00	1.621704e+00	0.000000e+00	
72	3.042880e-06	0.000000e+00	1.621704e+00	0.000000e+00	
73	3.083840e-06	0.000000e+00	1.621704e+00	0.000000e+00	
74	3.165760e-06	0.000000e+00	1.621704e+00	0.000000e+00	
75	3.329600e-06	0.000000e+00	1.621704e+00	0.000000e+00	
76	3.657280e-06	0.000000e+00	1.621704e+00	0.000000e+00	
77	4.000000e-06	0.000000e+00	1.621704e+00	0.000000e+00	
78	4.000100e-06	0.000000e+00	1.621704e+00	0.000000e+00	
79	4.000300e-06	0.000000e+00	1.621704e+00	0.000000e+00	
80	4.000700e-06	0.000000e+00	1.621704e+00	0.000000e+00	
81	4.001000e-06	0.000000e+00	1.621704e+00	0.000000e+00	
82	4.001080e-06	0.000000e+00	1.621704e+00	0.000000e+00	
83	4.001240e-06	0.000000e+00	1.621704e+00	0.000000e+00	
84	4.001560e-06	0.000000e+00	1.621704e+00	0.000000e+00	
85	4.002200e-06	0.000000e+00	1.621704e+00	0.000000e+00	
86	4.003480e-06	0.000000e+00	1.621704e+00	0.000000e+00	
87	4.006040e-06	0.000000e+00	1.621704e+00	0.000000e+00	
88	4.011160e-06	0.000000e+00	1.621704e+00	0.000000e+00	
89	4.021400e-06	0.000000e+00	1.621704e+00	0.000000e+00	
90	4.041880e-06	0.000000e+00	1.621704e+00	0.000000e+00	
91	4.082840e-06	0.000000e+00	1.621704e+00	0.000000e+00	
92	4.164760e-06	0.000000e+00	1.621704e+00	0.000000e+00	
93	4.328600e-06	0.000000e+00	1.621704e+00	0.000000e+00	
94	4.656280e-06	0.000000e+00	1.621704e+00	0.000000e+00	
95	5.000000e-06	0.000000e+00	1.621704e+00	0.000000e+00	
96	5.000100e-06	0.000000e+00	1.648217e+00	0.000000e+00	
97	5.000300e-06	0.000000e+00	1.681915e+00	0.000000e+00	
98	5.000407e-06	0.000000e+00	1.689754e+00	0.000000e+00	
99	5.000493e-06	0.000000e+00	1.688866e+00	0.000000e+00	
100	5.000584e-06	0.000000e+00	1.675941e+00	0.000000e+00	
101	5.000695e-06	0.000000e+00	1.654852e+00	0.000000e+00	
102	5.000757e-06	0.000000e+00	1.653655e+00	0.000000e+00	
103	5.000826e-06	0.000000e+00	1.648791e+00	0.000000e+00	
104	5.000897e-06	0.000000e+00	1.643793e+00	0.000000e+00	
105	5.001000e-06	0.000000e+00	1.636334e+00	0.000000e+00	
106	5.001011e-06	0.000000e+00	1.634100e+00	0.000000e+00	
107	5.001033e-06	0.000000e+00	1.631181e+00	0.000000e+00	
108	5.001078e-06	0.000000e+00	1.628774e+00	0.000000e+00	
109	5.001166e-06	0.000000e+00	1.626080e+00	0.000000e+00	
110	5.001262e-06	0.000000e+00	1.624589e+00	0.000000e+00	
111	5.001453e-06	0.000000e+00	1.622818e+00	0.000000e+00	
112	5.001835e-06	0.000000e+00	1.621816e+00	0.000000e+00	

Index   time                            ?               bl              
--------------------------------------------------------------------------------
113	5.002000e-06	0.000000e+00	1.621727e+00	0.000000e+00	
114	5.002076e-06	0.000000e+00	1.621733e+00	0.000000e+00	
115	5.002100e-06	0.000000e+00	1.621732e+00	0.000000e+00	
116	5.002109e-06	0.000000e+00	1.621809e+00	1.544513e-02	
117	5.002126e-06	0.000000e+00	1.622911e+00	4.633539e-02	
118	5.002160e-06	0.000000e+00	1.627814e+00	1.081159e-01	
119	5.002229e-06	0.000000e+00	1.638642e+00	2.316769e-01	
120	5.002329e-06	0.000000e+00	1.650540e+00	4.124582e-01	
121	5.002469e-06	0.000000e+00	1.658253e+00	6.642325e-01	
122	5.002622e-06	0.000000e+00	1.656762e+00	9.392019e-01	
123	5.002781e-06	0.000000e+00	1.645487e+00	1.226683e+00	
124	5.002895e-06	0.000000e+00	1.640235e+00	1.430407e+00	
125	5.003009e-06	0.000000e+00	1.657424e+00	1.636438e+00	
126	5.003065e-06	0.000000e+00	1.675385e+00	1.737587e+00	
127	5.003100e-06	0.000000e+00	1.686889e+00	1.800000e+00	
128	5.003107e-06	0.000000e+00	1.689407e+00	1.800000e+00	
129	5.003121e-06	0.000000e+00	1.694789e+00	1.800000e+00	
130	5.003150e-06	0.000000e+00	1.706263e+00	1.800000e+00	
131	5.003207e-06	0.000000e+00	1.726862e+00	1.800000e+00	
132	5.003276e-06	0.000000e+00	1.742016e+00	1.800000e+00	
133	5.003349e-06	0.000000e+00	1.743497e+00	1.800000e+00	
134	5.003440e-06	0.000000e+00	1.720421e+00	1.800000e+00	
135	5.003606e-06	0.000000e+00	1.578089e+00	1.800000e+00	
136	5.003812e-06	0.000000e+00	1.189984e+00	1.800000e+00	
137	5.003931e-06	0.000000e+00	1.099766e+00	1.800000e+00	
138	5.004076e-06	0.000000e+00	1.108808e+00	1.800000e+00	
139	5.004092e-06	0.000000e+00	1.111107e+00	1.772697e+00	
140	5.004122e-06	0.000000e+00	1.116845e+00	1.718090e+00	
141	5.004183e-06	0.000000e+00	1.132606e+00	1.608876e+00	
142	5.004253e-06	0.000000e+00	1.207170e+00	1.482589e+00	
143	5.004330e-06	0.000000e+00	1.346345e+00	1.343176e+00	
144	5.004409e-06	0.000000e+00	1.397618e+00	1.200887e+00	
145	5.004491e-06	0.000000e+00	1.427367e+00	1.053097e+00	
146	5.004645e-06	0.000000e+00	1.449779e+00	7.768569e-01	
147	5.004799e-06	0.000000e+00	1.450117e+00	5.001719e-01	
148	5.004926e-06	0.000000e+00	1.442799e+00	2.705527e-01	
149	5.005063e-06	0.000000e+00	1.428965e+00	2.498577e-02	
150	5.005076e-06	0.000000e+00	1.429006e+00	6.269846e-13	
151	5.005081e-06	0.000000e+00	1.428768e+00	0.000000e+00	
152	5.005091e-06	0.000000e+00	1.428955e+00	0.000000e+00	
153	5.005110e-06	0.000000e+00	1.431499e+00	0.000000e+00	
154	5.005149e-06	0.000000e+00	1.440465e+00	0.000000e+00	
155	5.005226e-06	0.000000e+00	1.466004e+00	0.000000e+00	
156	5.005315e-06	0.000000e+00	1.479741e+00	0.000000e+00	
157	5.005407e-06	0.000000e+00	1.493730e+00	0.000000e+00	
158	5.005517e-06	0.000000e+00	1.507689e+00	0.000000e+00	
159	5.005642e-06	0.000000e+00	1.533901e+00	0.000000e+00	
160	5.005782e-06	0.000000e+00	1.568675e+00	0.000000e+00	
161	5.005923e-06	0.000000e+00	1.517290e+00	0.000000e+00	
162	5.006043e-06	0.000000e+00	1.413275e+00	0.000000e+00	
163	5.006177e-06	0.000000e+00	1.516205e+00	0.000000e+00	
164	5.006283e-06	0.000000e+00	1.656065e+00	0.000000e+00	
165	5.006399e-06	0.000000e+00	1.767642e+00	0.000000e+00	
166	5.006557e-06	0.000000e+00	1.875096e+00	0.000000e+00	
167	5.006814e-06	0.000000e+00	1.956833e+00	0.000000e+00	
168	5.007046e-06	0.000000e+00	1.984853e+00	0.000000e+00	
169	5.007403e-06	0.000000e+00	1.995750e+00	0.000000e+00	
170	5.007752e-06	0.000000e+00	1.998573e+00	0.000000e+00	

Index   time                            ?               bl              
--------------------------------------------------------------------------------
171	5.008449e-06	0.000000e+00	1.997886e+00	0.000000e+00	
172	5.009330e-06	0.000000e+00	1.998810e+00	0.000000e+00	
173	5.011092e-06	0.000000e+00	1.997862e+00	0.000000e+00	
174	5.014616e-06	0.000000e+00	1.998801e+00	0.000000e+00	
175	5.021018e-06	0.000000e+00	1.997855e+00	0.000000e+00	
176	5.033822e-06	0.000000e+00	1.998780e+00	0.000000e+00	
177	5.059431e-06	0.000000e+00	1.997817e+00	0.000000e+00	
178	5.110648e-06	0.000000e+00	1.998702e+00	0.000000e+00	
179	5.213081e-06	0.000000e+00	1.997664e+00	0.000000e+00	
180	5.417949e-06	0.000000e+00	1.998397e+00	0.000000e+00	
181	5.817949e-06	0.000000e+00	1.997065e+00	0.000000e+00	
182	6.000000e-06	0.000000e+00	1.997818e+00	0.000000e+00	
183	6.000100e-06	0.000000e+00	1.997383e+00	0.000000e+00	
184	6.000300e-06	0.000000e+00	1.997308e+00	0.000000e+00	
185	6.000700e-06	0.000000e+00	1.997385e+00	0.000000e+00	
186	6.001000e-06	0.000000e+00	1.997319e+00	0.000000e+00	
187	6.001080e-06	0.000000e+00	1.997347e+00	0.000000e+00	
188	6.001240e-06	0.000000e+00	1.997352e+00	0.000000e+00	
189	6.001560e-06	0.000000e+00	1.997347e+00	0.000000e+00	
190	6.002100e-06	0.000000e+00	1.997351e+00	0.000000e+00	
191	6.002128e-06	0.000000e+00	1.999378e+00	4.958134e-02	
192	6.002183e-06	0.000000e+00	2.006104e+00	1.487440e-01	
193	6.002293e-06	0.000000e+00	2.020715e+00	3.470694e-01	
194	6.002435e-06	0.000000e+00	2.030361e+00	6.037643e-01	
195	6.002587e-06	0.000000e+00	2.031283e+00	8.771509e-01	
196	6.002743e-06	0.000000e+00	2.022085e+00	1.157866e+00	
197	6.002858e-06	0.000000e+00	2.015102e+00	1.363615e+00	
198	6.002954e-06	0.000000e+00	2.018617e+00	1.536461e+00	
199	6.003031e-06	0.000000e+00	2.036180e+00	1.675854e+00	
200	6.003087e-06	0.000000e+00	2.053800e+00	1.777281e+00	
201	6.003100e-06	0.000000e+00	2.057763e+00	1.800000e+00	
202	6.003106e-06	0.000000e+00	2.059770e+00	1.800000e+00	
203	6.003118e-06	0.000000e+00	2.064055e+00	1.800000e+00	
204	6.003143e-06	0.000000e+00	2.073278e+00	1.800000e+00	
205	6.003192e-06	0.000000e+00	2.090810e+00	1.800000e+00	
206	6.003259e-06	0.000000e+00	2.107001e+00	1.800000e+00	
207	6.003331e-06	0.000000e+00	2.112020e+00	1.800000e+00	
208	6.003415e-06	0.000000e+00	2.098283e+00	1.800000e+00	
209	6.003557e-06	0.000000e+00	2.012580e+00	1.800000e+00	
210	6.003735e-06	0.000000e+00	1.731206e+00	1.800000e+00	
211	6.003906e-06	0.000000e+00	1.366886e+00	1.800000e+00	
212	6.004007e-06	0.000000e+00	1.247723e+00	1.800000e+00	
213	6.004099e-06	0.000000e+00	1.181888e+00	1.800000e+00	
214	6.004213e-06	0.000000e+00	1.194050e+00	1.800000e+00	
215	6.004299e-06	0.000000e+00	1.346546e+00	1.800000e+00	
216	6.004395e-06	0.000000e+00	1.427627e+00	1.800000e+00	
217	6.004485e-06	0.000000e+00	1.454242e+00	1.800000e+00	
218	6.004650e-06	0.000000e+00	1.477170e+00	1.800000e+00	
219	6.004804e-06	0.000000e+00	1.484512e+00	1.800000e+00	
220	6.005039e-06	0.000000e+00	1.487954e+00	1.800000e+00	
221	6.005299e-06	0.000000e+00	1.488771e+00	1.800000e+00	
222	6.005782e-06	0.000000e+00	1.489274e+00	1.800000e+00	
223	6.006415e-06	0.000000e+00	1.489483e+00	1.800000e+00	
224	6.007307e-06	0.000000e+00	1.489591e+00	1.800000e+00	
225	6.008481e-06	0.000000e+00	1.489643e+00	1.800000e+00	
226	6.010614e-06	0.000000e+00	1.489771e+00	1.800000e+00	
227	6.014881e-06	0.000000e+00	1.489986e+00	1.800000e+00	
228	6.023414e-06	0.000000e+00	1.490444e+00	1.800000e+00	

Index   time                            ?               bl              
--------------------------------------------------------------------------------
229	6.040479e-06	0.000000e+00	1.491301e+00	1.800000e+00	
230	6.074611e-06	0.000000e+00	1.492988e+00	1.800000e+00	
231	6.142874e-06	0.000000e+00	1.496109e+00	1.800000e+00	
232	6.279400e-06	0.000000e+00	1.501694e+00	1.800000e+00	
233	6.552452e-06	0.000000e+00	1.510837e+00	1.800000e+00	
234	6.952452e-06	0.000000e+00	1.521143e+00	1.800000e+00	
235	7.001000e-06	0.000000e+00	1.522193e+00	1.800000e+00	
236	7.001100e-06	0.000000e+00	1.522203e+00	1.800000e+00	
237	7.001300e-06	0.000000e+00	1.522205e+00	1.800000e+00	
238	7.001700e-06	0.000000e+00	1.522216e+00	1.800000e+00	
239	7.002000e-06	0.000000e+00	1.522221e+00	1.800000e+00	
240	7.002080e-06	0.000000e+00	1.522223e+00	1.800000e+00	
241	7.002240e-06	0.000000e+00	1.522227e+00	1.800000e+00	
242	7.002560e-06	0.000000e+00	1.522234e+00	1.800000e+00	
243	7.003200e-06	0.000000e+00	1.522248e+00	1.800000e+00	
244	7.004080e-06	0.000000e+00	1.522267e+00	1.800000e+00	
245	7.004105e-06	0.000000e+00	1.522434e+00	1.755121e+00	
246	7.004155e-06	0.000000e+00	1.522859e+00	1.665362e+00	
247	7.004255e-06	0.000000e+00	1.522864e+00	1.485846e+00	
248	7.004394e-06	0.000000e+00	1.521795e+00	1.234510e+00	
249	7.004532e-06	0.000000e+00	1.522094e+00	9.865240e-01	
250	7.004697e-06	0.000000e+00	1.517355e+00	6.892501e-01	
251	7.004826e-06	0.000000e+00	1.510434e+00	4.576319e-01	
252	7.004945e-06	0.000000e+00	1.502855e+00	2.435913e-01	
253	7.005080e-06	0.000000e+00	1.483831e+00	6.272483e-13	
254	7.005096e-06	0.000000e+00	1.482878e+00	0.000000e+00	
255	7.005127e-06	0.000000e+00	1.485231e+00	0.000000e+00	
256	7.005189e-06	0.000000e+00	1.498761e+00	0.000000e+00	
257	7.005277e-06	0.000000e+00	1.523134e+00	0.000000e+00	
258	7.005379e-06	0.000000e+00	1.537465e+00	0.000000e+00	
259	7.005472e-06	0.000000e+00	1.550102e+00	0.000000e+00	
260	7.005585e-06	0.000000e+00	1.564830e+00	0.000000e+00	
261	7.005716e-06	0.000000e+00	1.595332e+00	0.000000e+00	
262	7.005857e-06	0.000000e+00	1.626803e+00	0.000000e+00	
263	7.006017e-06	0.000000e+00	1.511478e+00	0.000000e+00	
264	7.006118e-06	0.000000e+00	1.484524e+00	0.000000e+00	
265	7.006231e-06	0.000000e+00	1.588414e+00	0.000000e+00	
266	7.006334e-06	0.000000e+00	1.723695e+00	0.000000e+00	
267	7.006471e-06	0.000000e+00	1.850199e+00	0.000000e+00	
268	7.006632e-06	0.000000e+00	1.948324e+00	0.000000e+00	
269	7.006872e-06	0.000000e+00	2.017938e+00	0.000000e+00	
270	7.007129e-06	0.000000e+00	2.046266e+00	0.000000e+00	
271	7.007472e-06	0.000000e+00	2.055118e+00	0.000000e+00	
272	7.007852e-06	0.000000e+00	2.057716e+00	0.000000e+00	
273	7.008540e-06	0.000000e+00	2.057094e+00	0.000000e+00	
274	7.009531e-06	0.000000e+00	2.057866e+00	0.000000e+00	
275	7.011514e-06	0.000000e+00	2.057082e+00	0.000000e+00	
276	7.015480e-06	0.000000e+00	2.057856e+00	0.000000e+00	
277	7.023413e-06	0.000000e+00	2.057071e+00	0.000000e+00	
278	7.039277e-06	0.000000e+00	2.057828e+00	0.000000e+00	
279	7.071006e-06	0.000000e+00	2.057018e+00	0.000000e+00	
280	7.134463e-06	0.000000e+00	2.057722e+00	0.000000e+00	
281	7.261377e-06	0.000000e+00	2.056808e+00	0.000000e+00	
282	7.515206e-06	0.000000e+00	2.057301e+00	0.000000e+00	
283	7.915206e-06	0.000000e+00	2.056086e+00	0.000000e+00	
284	8.000000e-06	0.000000e+00	2.056764e+00	0.000000e+00	
285	8.000100e-06	0.000000e+00	2.056406e+00	0.000000e+00	
286	8.000300e-06	0.000000e+00	2.056342e+00	0.000000e+00	

Index   time                            ?               bl              
--------------------------------------------------------------------------------
287	8.000700e-06	0.000000e+00	2.056407e+00	0.000000e+00	
288	8.001000e-06	0.000000e+00	2.056351e+00	0.000000e+00	
289	8.001080e-06	0.000000e+00	2.056375e+00	0.000000e+00	
290	8.001240e-06	0.000000e+00	2.056379e+00	0.000000e+00	
291	8.001560e-06	0.000000e+00	2.056375e+00	0.000000e+00	
292	8.002100e-06	0.000000e+00	2.056378e+00	0.000000e+00	
293	8.002128e-06	0.000000e+00	2.058400e+00	4.958119e-02	
294	8.002183e-06	0.000000e+00	2.065106e+00	1.487436e-01	
295	8.002293e-06	0.000000e+00	2.079664e+00	3.470683e-01	
296	8.002435e-06	0.000000e+00	2.089267e+00	6.037626e-01	
297	8.002587e-06	0.000000e+00	2.090179e+00	8.771578e-01	
298	8.002743e-06	0.000000e+00	2.081007e+00	1.157870e+00	
299	8.002858e-06	0.000000e+00	2.074051e+00	1.363616e+00	
300	8.002954e-06	0.000000e+00	2.077560e+00	1.536463e+00	
301	8.003031e-06	0.000000e+00	2.095070e+00	1.675854e+00	
302	8.003087e-06	0.000000e+00	2.112628e+00	1.777281e+00	
303	8.003100e-06	0.000000e+00	2.116577e+00	1.800000e+00	
304	8.003106e-06	0.000000e+00	2.118576e+00	1.800000e+00	
305	8.003118e-06	0.000000e+00	2.122846e+00	1.800000e+00	
306	8.003143e-06	0.000000e+00	2.132036e+00	1.800000e+00	
307	8.003192e-06	0.000000e+00	2.149502e+00	1.800000e+00	
308	8.003259e-06	0.000000e+00	2.165623e+00	1.800000e+00	
309	8.003331e-06	0.000000e+00	2.170613e+00	1.800000e+00	
310	8.003415e-06	0.000000e+00	2.156912e+00	1.800000e+00	
311	8.003557e-06	0.000000e+00	2.071478e+00	1.800000e+00	
312	8.003734e-06	0.000000e+00	1.794096e+00	1.800000e+00	
313	8.003929e-06	0.000000e+00	1.387107e+00	1.800000e+00	
314	8.004036e-06	0.000000e+00	1.269197e+00	1.800000e+00	
315	8.004128e-06	0.000000e+00	1.210282e+00	1.800000e+00	
316	8.004237e-06	0.000000e+00	1.251282e+00	1.800000e+00	
317	8.004324e-06	0.000000e+00	1.417967e+00	1.800000e+00	
318	8.004418e-06	0.000000e+00	1.473034e+00	1.800000e+00	
319	8.004503e-06	0.000000e+00	1.498091e+00	1.800000e+00	
320	8.004661e-06	0.000000e+00	1.518800e+00	1.800000e+00	
321	8.004830e-06	0.000000e+00	1.526724e+00	1.800000e+00	
322	8.005065e-06	0.000000e+00	1.529520e+00	1.800000e+00	
323	8.005343e-06	0.000000e+00	1.530472e+00	1.800000e+00	
324	8.005833e-06	0.000000e+00	1.530792e+00	1.800000e+00	
325	8.006498e-06	0.000000e+00	1.531064e+00	1.800000e+00	
326	8.007401e-06	0.000000e+00	1.531051e+00	1.800000e+00	
327	8.008651e-06	0.000000e+00	1.531156e+00	1.800000e+00	
328	8.010883e-06	0.000000e+00	1.531292e+00	1.800000e+00	
329	8.015348e-06	0.000000e+00	1.531532e+00	1.800000e+00	
330	8.024277e-06	0.000000e+00	1.531787e+00	1.800000e+00	
331	8.042135e-06	0.000000e+00	1.532244e+00	1.800000e+00	
